Time,time,V(inn),V(inp),V(n001),V(n002),V(n2v5),V(nc_01),V(nc_02),V(outa),V(outb),V(p2v5),V(sd),V(signal),V(vdd),V(vee),I(Ca),I(Cb),I(Cf),I(Cload),I(Cpara),I(Cparb),I(IOUTA),I(IOUTB),I(R1),I(R2),I(R3),I(R5),I(Ra),I(Rb),I(Rf),I(Rload),I(Rpara),I(Rparb),I(V1),I(V2),I(V3),I(V4),Ix(u1:1),Ix(u1:2),Ix(u1:3),Ix(u1:4),Ix(u1:5),Ix(u1:6),Ix(u2:1),Ix(u2:2),Ix(u2:3),Ix(u2:4),Ix(u2:5),Ix(u2:6),Ix(u3:1),Ix(u3:2),Ix(u3:3),Ix(u3:4),Ix(u3:5),Ix(u3:6)
0.0,0.0,6.614548e-06,6.615234e-06,-0.4982944,-0.4982944,-2.5,2.5,2.5,-0.5024202,-0.4990965,2.5,-15.183333,-0.57409316,18.0,-18.0,1.4552005e-28,1.4553515e-28,-1.4334601e-25,1.2630049e-22,3.307274e-29,3.307617e-29,0.002,0.002,-0.0014083333,-0.0015183333,-0.002001209,-0.002001209,-4.1257623e-05,-9.042952e-06,-5.1195006e-05,-0.026095144,4.4096986e-11,4.410156e-11,-0.032543685,-0.060098354,-0.0059521226,-0.0020000073,9.042952e-06,-9.937381e-06,0.03254368,-0.05869002,0.02614634,0.00011,-1.200189e-06,-1.2089608e-06,0.0010000037,-0.0029599539,0.0019599514,0.0,-1.200189e-06,-1.2089608e-06,0.0010000037,-0.0029921685,0.001992166,0.0
1.9999998879249858e-10,1.9999998879249858e-10,1.5175101e-05,-1.9454985e-06,-0.49829417,-0.49829465,-2.5,2.5,2.5,-0.50242025,-0.49909666,2.5,-15.183333,-0.57409316,18.0,-18.0,1.880933e-06,-1.8809753e-06,1.4290624e-09,1.1669169e-09,4.2748476e-07,-4.274944e-07,0.0020025133,0.0019974867,-0.0014083333,-0.0015183333,-0.0020012425,-0.0020011757,-4.12605e-05,-9.041793e-06,-5.119496e-05,-0.026095144,1.01167345e-10,-1.296999e-11,-0.03254368,-0.060098357,-0.0059521217,-0.0020000073,9.041793e-06,-9.93303e-06,0.03254368,-0.05869002,0.02614634,0.00011,-1.285928e-06,-1.03764e-06,0.0010000037,-0.0029599688,0.0019599819,0.0,-1.1144482e-06,-1.3802857e-06,0.0010000037,-0.0029921532,0.0019921337,0.0
3.9999997758499717e-10,3.9999997758499717e-10,4.061948e-05,-2.7391536e-05,-0.49829322,-0.4982957,-2.5,2.5,2.5,-0.50242066,-0.4990974,2.5,-15.183333,-0.57409316,18.0,-18.0,3.7121943e-06,-3.7125676e-06,7.557162e-09,5.9824687e-09,8.436805e-07,-8.4376535e-07,0.0020050264,0.0019949735,-0.0014083333,-0.0015183333,-0.0020013407,-0.0020010776,-4.12743e-05,-9.03829e-06,-5.1194656e-05,-0.026095144,2.7079655e-10,-1.8261023e-10,-0.03254368,-0.060098354,-0.005952116,-0.0020000073,9.03829e-06,-9.912802e-06,0.03254368,-0.058690015,0.026146337,0.00011,-1.369895e-06,-8.703497e-07,0.0010000037,-0.002960027,0.0019600664,0.0,-1.030466e-06,-1.5476061e-06,0.0010000037,-0.0029920891,0.0019920394,0.0
7.999999551699943e-10,7.999999551699943e-10,0.00014005044,-0.0001268531,-0.4982914,-0.4982984,-2.5,2.5,2.5,-0.5024227,-0.49910006,2.5,-15.183333,-0.57409316,18.0,-18.0,7.225212e-06,-7.228205e-06,1.2876796e-08,8.491869e-09,1.6420936e-06,-1.6427739e-06,0.002010053,0.001989947,-0.0014083333,-0.0015183333,-0.0020017328,-0.002000689,-4.131297e-05,-9.0376825e-06,-5.1193198e-05,-0.026095144,9.336696e-10,-8.4568735e-10,-0.03254368,-0.06009835,-0.0059520863,-0.0020000073,9.0376825e-06,-9.867351e-06,0.03254368,-0.05869001,0.026146334,0.00011,-1.5324185e-06,-5.479816e-07,0.0010000037,-0.0029603187,0.0019604198,0.0,-8.6782245e-07,-1.8702133e-06,0.0010000037,-0.0029917676,0.0019916513,0.0
1.5999999103399887e-09,1.5999999103399887e-09,0.0005186275,-0.0005050474,-0.49832135,-0.49825922,-2.5,2.5,2.5,-0.50239986,-0.49906725,2.5,-15.183333,-0.57409304,18.0,-18.0,1.3596529e-05,-1.357248e-05,-1.2654456e-07,-8.037637e-08,3.0901203e-06,-3.0846545e-06,0.002020106,0.0019798942,-0.0014083333,-0.0015183333,-0.0020033733,-0.0019990127,-4.078499e-05,-9.109743e-06,-5.1209438e-05,-0.026095139,3.457517e-09,-3.3669825e-09,-0.03254368,-0.060098413,-0.0059524067,-0.0020000073,9.109743e-06,-1.0550991e-05,0.03254368,-0.05869008,0.026146395,0.00011,-1.8328406e-06,4.2343796e-08,0.0010000037,-0.0029622195,0.0019625884,0.0,-5.6864064e-07,-2.4580681e-06,0.0010000037,-0.0029901871,0.001989903,0.0
2.758266383843684e-09,2.758266383843684e-09,0.0014329051,-0.0014083362,-0.49854857,-0.49789968,-2.5,2.5,2.5,-0.5021406,-0.49873415,2.5,-15.183333,-0.57409275,18.0,-18.0,2.1134865e-05,-2.0741481e-05,-7.677354e-07,-3.763696e-08,4.8033785e-06,-4.713973e-06,0.0020346597,0.0019653402,-0.0014083333,-0.0015183333,-0.0020079578,-0.0019939411,-3.5920137e-05,-9.407739e-06,-5.1394403e-05,-0.026095126,9.5527e-09,-9.388908e-09,-0.03254368,-0.060099266,-0.005956039,-0.0020000073,9.407739e-06,-1.6242002e-05,0.03254368,-0.058690928,0.02614725,0.00011,-2.2016147e-06,7.541326e-07,0.0010000037,-0.0029709109,0.0019720376,0.0,-2.1696833e-07,-3.1359502e-06,0.0010000037,-0.002985128,0.0019845334,0.0
4.2751617381927426e-09,4.2751617381927426e-09,0.003120378,-0.003012488,-0.49939948,-0.49642965,-2.5,2.5,2.5,-0.5010002,-0.49732324,2.5,-15.183333,-0.5740632,18.0,-18.0,2.7813008e-05,-2.5789526e-05,-2.1613841e-06,-8.53596e-06,6.3211382e-06,-5.861256e-06,0.002053717,0.0019462832,-0.0014083333,-0.0015183333,-0.002018152,-0.001981595,-1.6007487e-05,-1.0074414e-05,-5.2187825e-05,-0.026093781,2.0802519e-08,-2.0083252e-08,-0.03254368,-0.060091607,-0.005972091,-0.0020000073,1.0074414e-05,-3.8341725e-05,0.03254368,-0.058683272,0.026139595,0.00011,-2.5533805e-06,1.4097916e-06,0.0010000037,-0.0029995062,0.0020021445,0.0,5.832174e-08,-3.6409622e-06,0.0010000037,-0.002972585,0.0019715207,0.0
6.042312380979297e-09,6.042312380979297e-09,0.005479587,-0.0050531784,-0.50152344,-0.49270958,-2.5,2.5,2.5,-0.49801183,-0.49369377,2.5,-15.183333,-0.5734543,18.0,-18.0,3.092855e-05,-2.50213e-05,-3.2247563e-06,-0.00014306376,7.029216e-06,-5.686659e-06,0.0020759117,0.0019240883,-0.0014083333,-0.0015183333,-0.0020361568,-0.0019584594,3.5116092e-05,-1.1095867e-05,-5.3887492e-05,-0.026066106,3.6530576e-08,-3.3687854e-08,-0.03254368,-0.05993217,-0.0060153273,-0.0020000073,1.1095867e-05,-9.2228336e-05,0.03254368,-0.058523834,0.025980154,0.00011,-2.7624026e-06,1.7606233e-06,0.0010000037,-0.0030663512,0.0020712728,0.0,8.170854e-08,-3.62944e-06,0.0010000035,-0.0029489764,0.0019473635,0.0
8.06967610659768e-09,8.06967610659768e-09,0.0082225865,-0.0069575007,-0.5058571,-0.48543328,-2.5,2.5,2.5,-0.49201265,-0.48652458,2.5,-15.183333,-0.5685911,18.0,-18.0,2.8602944e-05,-1.630833e-05,9.834473e-07,-0.0009123993,6.5006693e-06,-3.7064385e-06,0.0021013631,0.0018986369,-0.0014083333,-0.0015183333,-0.002064577,-0.0019215895,0.00013844464,-1.2303341e-05,-5.469891e-05,-0.02584505,5.4817242e-08,-4.6383338e-08,-0.03254368,-0.058938384,-0.006106621,-0.0020000073,1.2303341e-05,-0.0001921601,0.03254368,-0.05753005,0.024986368,0.00011,-2.7350652e-06,1.6275319e-06,0.0010000037,-0.0031952343,0.0022030217,0.0,-2.599256e-07,-2.8914083e-06,0.0010000035,-0.0029113868,0.0019092861,0.0
1.0319760543317844e-08,1.0319760543317844e-08,0.010696301,-0.007822609,-0.51328975,-0.47412398,-2.5,2.5,2.5,-0.48243812,-0.4753021,2.5,-15.183333,-0.5471196,18.0,-18.0,1.97701e-05,-6.086947e-07,2.0165888e-05,-0.003286312,4.4932044e-06,-1.383397e-07,0.002129591,0.0018704089,-0.0014083333,-0.0015183333,-0.0021043615,-0.0018726963,0.00030851623,-1.3282115e-05,-4.620109e-05,-0.024869075,7.130867e-08,-5.215072e-08,-0.03254368,-0.05556081,-0.0062640007,-0.002000007,1.3282115e-05,-0.00033455144,0.03254368,-0.054152478,0.021608798,0.00011,-2.4042502e-06,8.9487764e-07,0.0010000037,-0.003402268,0.0024128777,0.0,-9.4882756e-07,-1.4881923e-06,0.0010000035,-0.0028617324,0.0018594142,0.0
1.1977240588951998e-08,1.1977240588951998e-08,0.011821237,-0.0073997895,-0.52050495,-0.46444005,-2.5,2.5,2.5,-0.47403988,-0.46564397,2.5,-15.183333,-0.5110116,18.0,-18.0,1.0092824e-05,1.1832976e-05,4.6706205e-05,-0.00629904,2.2938236e-06,2.6893129e-06,0.0021503684,0.0018496315,-0.0014083333,-0.0015183333,-0.002137856,-0.0018355031,0.00046465054,-1.3572907e-05,-2.6408385e-05,-0.023227802,7.880825e-08,-4.933193e-08,-0.032543685,-0.050860476,-0.0064145704,-0.002000007,1.3572907e-05,-0.0004443527,0.03254368,-0.049452145,0.016908463,0.00011,-1.9965155e-06,4.685188e-08,0.0010000037,-0.0035904183,0.0026025067,0.0,-1.5264386e-06,-3.4447575e-07,0.0010000035,-0.002824152,0.0018219302,0.0
1.3865972730762554e-08,1.3865972730762554e-08,0.0121416915,-0.005901867,-0.53024733,-0.45335257,-2.5,2.5,2.5,-0.4641821,-0.45453864,2.5,-15.183333,-0.43761632,18.0,-18.0,-2.6275015e-06,2.3062707e-05,8.7855056e-05,-0.0107991705,-5.9715944e-07,5.2415244e-06,0.0021740247,0.0018259754,-0.0014083333,-0.0015183333,-0.0021782692,-0.0017969907,0.0006606525,-1.3371684e-05,1.8975576e-05,-0.01989165,8.094461e-08,-3.934578e-08,-0.032543685,-0.042937666,-0.0066115586,-0.002000007,1.3371684e-05,-0.00055382185,0.03254368,-0.04152933,0.008985649,0.00011,-1.4274749e-06,-1.1009563e-06,0.0010000037,-0.0038260627,0.0028389217,0.0,-2.079679e-06,7.1975086e-07,0.0010000035,-0.002785496,0.001783619,0.0
1.568507884333094e-08,1.568507884333094e-08,0.011413431,-0.0037736306,-0.5407065,-0.4437815,-2.5,2.5,2.5,-0.45540532,-0.4449084,2.5,-15.183333,-0.3283632,18.0,-18.0,-1.4987452e-05,2.8414444e-05,0.0001330805,-0.015626643,-3.406239e-06,6.4578285e-06,0.0021967855,0.0018032144,-0.0014083333,-0.0015183333,-0.0022173491,-0.0017671,0.0008530119,-1.2704501e-05,9.074436e-05,-0.014925601,7.608954e-08,-2.5157538e-08,-0.033468552,-0.03395202,-0.0068135425,-0.002000007,1.2704501e-05,-0.00062918704,0.03346855,-0.03254368,-0.0009248671,0.00011,-8.448515e-07,-2.2459737e-06,0.0010000037,-0.0040577524,0.003070361,0.0,-2.3837472e-06,1.2673705e-06,0.0010000035,-0.0027557898,0.0017543954,0.0
1.7136553480035332e-08,1.7136553480035332e-08,0.010134743,-0.0019154449,-0.5493983,-0.43755352,-2.5,2.5,2.5,-0.44947755,-0.438613,2.5,-15.183333,-0.2130145,18.0,-18.0,-2.3774695e-05,2.7914595e-05,0.00016846377,-0.019340167,-5.40334e-06,6.344226e-06,0.0022149284,0.0017850716,-0.0014083333,-0.0015183333,-0.0022471207,-0.0017495505,0.0009992075,-1.1944602e-05,0.00016890219,-0.0096824765,6.7564955e-08,-1.27696325e-08,-0.04253874,-0.033952016,-0.006973164,-0.002000007,1.1944602e-05,-0.0006618415,0.04253874,-0.03254368,-0.009995056,0.00011,-4.0889728e-07,-3.081776e-06,0.0010000037,-0.004234577,0.003246328,0.0,-2.4141184e-06,1.27504e-06,0.0010000035,-0.002738587,0.0017376059,0.0
1.8509591333325544e-08,1.8509591333325544e-08,0.008446826,-0.000308707,-0.55751747,-0.43308792,-2.5,2.5,2.5,-0.44501737,-0.43407768,2.5,-15.183333,-0.08286088,18.0,-18.0,-3.031585e-05,2.3574492e-05,0.00019771233,-0.022368507,-6.889966e-06,5.357839e-06,0.0022320745,0.0017679256,-0.0014083333,-0.0015183333,-0.0022729489,-0.0017380691,0.0011250009,-1.1158732e-05,0.0002586832,-0.0037664038,5.6312167e-08,-2.0580466e-09,-0.05160218,-0.033952016,-0.0071149827,-0.0020000073,1.1158732e-05,-0.0006686054,0.05160218,-0.03254368,-0.0190585,0.00011,-6.334564e-08,-3.7249877e-06,0.0010000037,-0.0043874397,0.0033979497,0.0,-2.2627482e-06,9.262309e-07,0.0010000035,-0.0027275432,0.0017269104,0.0
1.9972372021443113e-08,1.9972372021443113e-08,0.006287924,0.0009928906,-0.5656528,-0.42985627,-2.5,2.5,2.5,-0.44152382,-0.43077683,2.5,-15.183333,0.07394255,18.0,-18.0,-3.462324e-05,1.5577169e-05,0.00022151627,-0.024797488,-7.868918e-06,3.5402654e-06,0.002250322,0.0017496779,-0.0014083333,-0.0015183333,-0.0022969507,-0.0017303178,0.00124129,-1.037867e-05,0.00036819026,0.003361025,4.1919495e-08,6.61927e-09,-0.061291903,-0.033952016,-0.0072496547,-0.0020000073,1.037867e-05,-0.00065158354,0.0612919,-0.03254368,-0.02874822,0.00011,1.9412808e-07,-4.1784956e-06,0.0010000037,-0.0045293528,0.003538241,0.0,-1.9364224e-06,2.3605593e-07,0.0010000035,-0.0027203017,0.0017199392,0.0
2.1328766911857798e-08,2.1328766911857798e-08,0.0041212384,0.0016625611,-0.5723879,-0.4280678,-2.5,2.5,2.5,-0.43929422,-0.42893794,2.5,-15.183333,0.2310311,18.0,-18.0,-3.566173e-05,6.1462274e-06,0.00023516189,-0.026160361,-8.104938e-06,1.3968698e-06,0.0022672236,0.0017327764,-0.0014083333,-0.0015183333,-0.0023152977,-0.0017258248,0.0013309368,-9.810055e-06,0.00047880382,0.010501415,2.7474922e-08,1.108374e-08,-0.06991942,-0.033952016,-0.007355219,-0.0020000073,9.810055e-06,-0.00061697105,0.06991942,-0.03254368,-0.03737574,0.00011,3.0323787e-07,-4.334905e-06,0.0010000037,-0.0046389652,0.0036462345,0.0,-1.5268771e-06,-6.0258236e-07,0.0010000035,-0.0027162542,0.0017160147,0.0
2.3050037600503594e-08,2.3050037600503594e-08,0.0014546108,0.0016521468,-0.579375,-0.42686692,-2.5,2.5,2.5,-0.43736374,-0.42770275,2.5,-15.183333,0.43735874,18.0,-18.0,-3.2503962e-05,-6.412441e-06,0.0002398294,-0.02658216,-7.3872643e-06,-1.4573731e-06,0.0022886437,0.0017113562,-0.0014083333,-0.0015183333,-0.0023326492,-0.0017209601,0.001420113,-9.423036e-06,0.0006248018,0.019879943,9.6974055e-09,1.1014312e-08,-0.07987041,-0.033952016,-0.0074592517,-0.0020000073,9.423036e-06,-0.0005554819,0.07987042,-0.03254368,-0.047326732,0.00011,2.358929e-07,-4.123941e-06,0.0010000037,-0.0047474336,0.0037527622,0.0,-9.557309e-07,-1.7451481e-06,0.0010000035,-0.0027118183,0.0017115371,0.0
2.47430073663178e-08,2.47430073663178e-08,-0.00074584933,0.000748618,-0.5842663,-0.42603892,-2.5,2.5,2.5,-0.43575433,-0.42687848,2.5,-15.183333,0.638422,18.0,-18.0,-2.4685627e-05,-1.7070122e-05,0.00023142261,-0.02567385,-5.6103695e-06,-3.8795733e-06,0.0023096788,0.0016903211,-0.0014083333,-0.0015183333,-0.0023434556,-0.0017140062,0.0014851196,-9.464997e-06,0.0007672688,0.029019183,-4.9723288e-09,4.9907865e-09,-0.0882354,-0.033952016,-0.007529836,-0.0020000073,9.464997e-06,-0.00048642812,0.0882354,-0.03254368,-0.055691723,0.00011,-5.661521e-08,-3.4757477e-06,0.0010000037,-0.0048247725,0.0038285751,0.0,-4.454756e-07,-2.740348e-06,0.0010000035,-0.0027050634,0.0017045413,0.0
2.64595299875596e-08,2.64595299875596e-08,-0.0022107975,-0.0008505634,-0.587166,-0.42459953,-2.5,2.5,2.5,-0.43359166,-0.42547914,2.5,-15.183333,0.83104086,18.0,-18.0,-1.2865709e-05,-2.3922044e-05,0.0002123961,-0.023700567,-2.9240248e-06,-5.4368284e-06,0.0023309707,0.0016690292,-0.0014083333,-0.0015183333,-0.0023492177,-0.0017018032,0.0015357435,-9.916644e-06,0.000903309,0.037774585,-1.4738649e-08,-5.670423e-09,-0.095134534,-0.033952016,-0.0075748893,-0.0020000073,9.916644e-06,-0.00042003847,0.09513454,-0.03254368,-0.06259086,0.00011,-5.520281e-07,-2.4425613e-06,0.0010000037,-0.0048820903,0.0038849614,0.0,-8.8333174e-08,-3.4092886e-06,0.0010000035,-0.0026927986,0.0016918865,0.0
2.8115385141984008e-08,2.8115385141984008e-08,-0.002665468,-0.0027100453,-0.5882495,-0.4218844,-2.5,2.5,2.5,-0.43034777,-0.4228286,2.5,-15.183333,0.99996376,18.0,-18.0,7.84035e-07,-2.5488802e-05,0.00018782959,-0.021186242,1.7818978e-07,-5.7929096e-06,0.0023514736,0.0016485264,-0.0014083333,-0.0015183333,-0.0023517432,-0.0016834311,0.0015790177,-1.0645245e-05,0.0010216511,0.045452897,-1.7769786e-08,-1.8066968e-08,-0.1003923,-0.033952013,-0.0076022153,-0.0020000073,1.0645245e-05,-0.00036953707,0.1003923,-0.03254368,-0.06784862,0.00011,-1.1594801e-06,-1.2140559e-06,0.0010000037,-0.0049280818,0.003930761,0.0,3.6011652e-08,-3.6049623e-06,0.0010000035,-0.0026741335,0.0016727858,0.0
2.993667463633003e-08,2.993667463633003e-08,-0.0019705407,-0.0046464764,-0.5881569,-0.41685623,-2.5,2.5,2.5,-0.42500937,-0.4178844,2.5,-15.183333,1.1632825,18.0,-18.0,1.6004511e-05,-2.1292866e-05,0.00015913426,-0.018269468,3.6373888e-06,-4.8392876e-06,0.0023739808,0.0016260191,-0.0014083333,-0.0015183333,-0.002354162,-0.0016554609,0.001631475,-1.1591427e-05,0.0011344942,0.05287648,-1.3136938e-08,-3.097651e-08,-0.104983255,-0.033952016,-0.0076280152,-0.0020000073,1.1591427e-05,-0.00033784655,0.104983255,-0.032543685,-0.07243957,0.00011,-1.871175e-06,1.9018601e-07,0.0010000037,-0.0049823606,0.003985637,0.0,-9.938548e-08,-3.2786934e-06,0.0010000035,-0.0026456546,0.0016438694,0.0
3.201079079473199e-08,3.201079079473199e-08,0.00020696258,-0.0061491784,-0.5876719,-0.40849006,-2.5,2.5,2.5,-0.41666812,-0.40960482,2.5,-15.183333,1.3221847,18.0,-18.0,3.0188728e-05,-1.0585237e-05,0.00013122732,-0.015439808,6.861075e-06,-2.4057358e-06,0.0023995528,0.0016004472,-0.0014083333,-0.0015183333,-0.002360959,-0.0016158269,0.0017100374,-1.2567615e-05,0.0012420377,0.060099304,1.3797505e-09,-4.099452e-08,-0.10945606,-0.03395202,-0.0076715588,-0.0020000073,1.2567615e-05,-0.0003367723,0.109456055,-0.032543685,-0.07691238,0.00011,-2.578127e-06,1.5425684e-06,0.0010000037,-0.005066194,0.0040709963,0.0,-5.43161e-07,-2.3477542e-06,0.0010000035,-0.0026053647,0.0016032592,0.0
3.411420644265032e-08,3.411420644265032e-08,0.003455127,-0.0064977007,-0.5883509,-0.39784563,-2.5,2.5,2.5,-0.406415,-0.39901346,2.5,-15.183333,1.4614834,18.0,-18.0,3.7757534e-05,3.2947173e-06,0.00011417446,-0.013699171,8.581258e-06,7.487994e-07,0.0024254166,0.0015745834,-0.0014083333,-0.0015183333,-0.002376731,-0.0015716784,0.0018193589,-1.316605e-05,0.0013342131,0.06643106,2.3034179e-08,-4.3318007e-08,-0.114122294,-0.033952016,-0.0077498644,-0.002000007,1.316605e-05,-0.00037097136,0.114122294,-0.032543685,-0.08157862,0.00011,-3.014969e-06,2.3238633e-06,0.0010000037,-0.0051892013,0.0041960897,0.0,-1.16411e-06,-1.095275e-06,0.0010000035,-0.0025606628,0.0015585123,0.0
3.626908311193922e-08,3.626908311193922e-08,0.0070721945,-0.0055491733,-0.591825,-0.38611597,-2.5,2.5,2.5,-0.3953419,-0.38728586,2.5,-15.183333,1.5943389,18.0,-18.0,3.6098645e-05,1.6073076e-05,0.00011188478,-0.01342834,8.204238e-06,3.652972e-06,0.0024518361,0.0015481638,-0.0014083333,-0.0015183333,-0.0024052097,-0.0015283807,0.0019648313,-1.3189328e-05,0.0014212006,0.07246995,4.714796e-08,-3.699449e-08,-0.11997505,-0.033952016,-0.007878081,-0.002000007,1.3189328e-05,-0.00043174604,0.11997505,-0.032543685,-0.08743137,0.00011,-3.0429105e-06,2.2764061e-06,0.0010000037,-0.0053609903,0.004370041,0.0,-1.7720456e-06,9.4096976e-08,0.0010000035,-0.0025170904,0.0015151914,0.0
3.866621082621209e-08,3.866621082621209e-08,0.010305391,-0.0033845932,-0.60007536,-0.37414885,-2.5,2.5,2.5,-0.38419285,-0.37526107,2.5,-15.183333,1.748269,18.0,-18.0,2.3247652e-05,2.3658444e-05,0.0001263689,-0.014826004,5.2835576e-06,5.376919e-06,0.002481128,0.0015188719,-0.0014083333,-0.0015183333,-0.0024513283,-0.0014890131,0.002158825,-1.2538908e-05,0.001523187,0.079466775,6.8702604e-08,-2.2563954e-08,-0.12848602,-0.03395202,-0.008077178,-0.002000007,1.2538908e-05,-0.00050926907,0.12848601,-0.032543685,-0.09594233,0.00011,-2.5511524e-06,1.1999999e-06,0.0010000037,-0.005599324,0.0046101534,0.0,-2.1786807e-06,8.459146e-07,0.0010000034,-0.0024778543,0.0014764742,0.0
4.036723121054458e-08,4.036723121054458e-08,0.011542522,-0.0015717152,-0.6087443,-0.36729977,-2.5,2.5,2.5,-0.3778596,-0.3683441,2.5,-15.183333,1.8698874,18.0,-18.0,8.753002e-06,2.3234958e-05,0.0001447273,-0.016632786,1.9893184e-06,5.280672e-06,0.0025018482,0.0014981518,-0.0014083333,-0.0015183333,-0.0024911119,-0.0014687874,0.0023088474,-1.17738155e-05,0.0016055335,0.084994875,7.6950144e-08,-1.0478101e-08,-0.13592161,-0.03395202,-0.008246521,-0.002000007,1.17738155e-05,-0.0005585867,0.13592161,-0.032543685,-0.10337792,0.00011,-1.9276517e-06,-8.297987e-08,0.0010000037,-0.0057885456,0.0047999592,0.0,-2.2112285e-06,8.592342e-07,0.0010000034,-0.002457976,0.0014570135,0.0
4.173385617696897e-08,4.173385617696897e-08,0.011677383,-0.00025021847,-0.617064,-0.36311957,-2.5,2.5,2.5,-0.37399408,-0.36410403,2.5,-15.183333,1.9784825,18.0,-18.0,-4.410984e-06,1.9312089e-05,0.00016180803,-0.018330649,-1.0024963e-06,4.389111e-06,0.0025184536,0.0014815464,-0.0014083333,-0.0015183333,-0.0025250658,-0.0014573067,0.002430699,-1.10988385e-05,0.0016803404,0.089931026,7.784922e-08,-1.6681231e-09,-0.1426475,-0.03395202,-0.008391254,-0.002000007,1.10988385e-05,-0.0005885505,0.1426475,-0.032543685,-0.11010382,0.00011,-1.3331421e-06,-1.2764477e-06,0.0010000038,-0.0059443777,0.004955765,0.0,-2.0706736e-06,5.402183e-07,0.0010000034,-0.0024468752,0.0014462078,0.0
